# freq[/s],z_re[ohm],z_im[ohm]
1.0000000000e-05,4.4110435431e+00,3.7837264202e-04
1.2589254118e-05,4.4110664465e+00,4.7364157025e-04
1.5848931925e-05,4.4111022747e+00,5.9096086111e-04
1.9952623150e-05,4.4111579064e+00,7.3358201223e-04
2.5118864315e-05,4.4112433004e+00,9.0344850110e-04
3.1622776602e-05,4.4113721018e+00,1.0992723086e-03
3.9810717055e-05,4.4115613512e+00,1.3134672479e-03
5.0118723363e-05,4.4118290247e+00,1.5282044186e-03
6.3095734448e-05,4.4121879558e+00,1.7122404315e-03
7.9432823472e-05,4.4126361433e+00,1.8220929031e-03
1.0000000000e-04,4.4131474109e+00,1.8113901037e-03
1.2589254118e-04,4.4136702659e+00,1.6475516821e-03
1.5848931925e-04,4.4141401607e+00,1.3268917910e-03
1.9952623150e-04,4.4144999092e+00,8.7723364599e-04
2.5118864315e-04,4.4147157801e+00,3.4647365499e-04
3.1622776602e-04,4.4147819266e+00,-2.1420976180e-04
3.9810717055e-04,4.4147153471e+00,-7.6402713567e-04
5.0118723363e-04,4.4145461578e+00,-1.2805614569e-03
6.3095734448e-04,4.4143059313e+00,-1.7615370748e-03
7.9432823472e-04,4.4140175504e+00,-2.2194371213e-03
1.0000000000e-03,4.4136917377e+00,-2.6710571946e-03
1.2589254118e-03,4.4133324797e+00,-3.1285483977e-03
1.5848931925e-03,4.4129472950e+00,-3.5981013094e-03
1.9952623150e-03,4.4125554499e+00,-4.0867018028e-03
2.5118864315e-03,4.4121901075e+00,-4.6124877121e-03
3.1622776602e-03,4.4118981554e+00,-5.2156591019e-03
3.9810717055e-03,4.4117331546e+00,-5.9690729004e-03
5.0118723363e-03,4.4117479819e+00,-7.0051945971e-03
6.3095734448e-03,4.4119617500e+00,-8.5127074358e-03
7.9432823472e-03,4.4122978939e+00,-1.0765525977e-02
1.0000000000e-02,4.4125612663e+00,-1.4040702661e-02
1.2589254118e-02,4.4123564999e+00,-1.8549985714e-02
1.5848931925e-02,4.4112041549e+00,-2.4339835110e-02
1.9952623150e-02,4.4085951819e+00,-3.1194326539e-02
2.5118864315e-02,4.4041590499e+00,-3.8701508183e-02
3.1622776602e-02,4.3977568977e+00,-4.6294686528e-02
3.9810717055e-02,4.3895388523e+00,-5.3414441035e-02
5.0118723363e-02,4.3799239264e+00,-5.9668252537e-02
6.3095734448e-02,4.3694462485e+00,-6.4981026956e-02
7.9432823472e-02,4.3585092304e+00,-6.9577546795e-02
1.0000000000e-01,4.3472241095e+00,-7.3818999979e-02
1.2589254118e-01,4.3354570612e+00,-7.7924957877e-02
1.5848931925e-01,4.3230000349e+00,-8.1891706102e-02
1.9952623150e-01,4.3097778796e+00,-8.5569017099e-02
2.5118864315e-01,4.2958287050e+00,-8.8767206106e-02
3.1622776602e-01,4.2812787936e+00,-9.1375037001e-02
3.9810717055e-01,4.2662813691e+00,-9.3298743829e-02
5.0118723363e-01,4.2509943551e+00,-9.4508137685e-02
6.3095734448e-01,4.2355625190e+00,-9.4983579415e-02
7.9432823472e-01,4.2201548262e+00,-9.4748149327e-02
1.0000000000e+00,4.2049003643e+00,-9.3789575804e-02
1.2589254118e+00,4.1899440250e+00,-9.2202678620e-02
1.5848931925e+00,4.1754131278e+00,-9.0019447087e-02
1.9952623150e+00,4.1614250954e+00,-8.7337197937e-02
2.5118864315e+00,4.1480081193e+00,-8.4204858968e-02
3.1622776602e+00,4.1353300820e+00,-8.0820407153e-02
3.9810717055e+00,4.1233650664e+00,-7.7090585728e-02
5.0118723363e+00,4.1120981214e+00,-7.3363544431e-02
6.3095734448e+00,4.1017195360e+00,-6.9495873495e-02
7.9432823472e+00,4.0919509841e+00,-6.5690228872e-02
1.0000000000e+01,4.0830943850e+00,-6.2124423757e-02
1.2589254118e+01,4.0748755627e+00,-5.8635333785e-02
1.5848931925e+01,4.0673353000e+00,-5.5663181611e-02
1.9952623150e+01,4.0604953516e+00,-5.2892406315e-02
2.5118864315e+01,4.0540866102e+00,-5.0711479224e-02
3.1622776602e+01,4.0484838024e+00,-4.9135364514e-02
3.9810717055e+01,4.0431693319e+00,-4.8129755908e-02
5.0118723363e+01,4.0383707742e+00,-4.8187732603e-02
6.3095734448e+01,4.0339064082e+00,-4.9043056202e-02
7.9432823472e+01,4.0295070567e+00,-5.1254260716e-02
1.0000000000e+02,4.0255102461e+00,-5.4764081176e-02
1.2589254118e+02,4.0211595599e+00,-5.9932246397e-02
1.5848931925e+02,4.0166513575e+00,-6.7361536675e-02
1.9952623150e+02,4.0113636478e+00,-7.7008201805e-02
2.5118864315e+02,4.0046830461e+00,-8.9699708402e-02
3.1622776602e+02,3.9960071836e+00,-1.0533252357e-01
3.9810717055e+02,3.9838453832e+00,-1.2439199640e-01
5.0118723363e+02,3.9671368461e+00,-1.4663434307e-01
6.3095734448e+02,3.9437944112e+00,-1.7083966387e-01
7.9432823472e+02,3.9124128653e+00,-1.9534362697e-01
1.0000000000e+03,3.8722499980e+00,-2.1660924040e-01
1.2589254118e+03,3.8243430774e+00,-2.3098681251e-01
1.5848931925e+03,3.7721868922e+00,-2.3521344974e-01
1.9952623150e+03,3.7203092049e+00,-2.2803768076e-01
2.5118864315e+03,3.6735659676e+00,-2.1105964137e-01
3.1622776602e+03,3.6349658295e+00,-1.8748316291e-01
3.9810717055e+03,3.6052942431e+00,-1.6126372723e-01
5.0118723363e+03,3.5838907004e+00,-1.3530659576e-01
6.3095734448e+03,3.5689387008e+00,-1.1162267624e-01
7.9432823472e+03,3.5588878305e+00,-9.1085250220e-02
1.0000000000e+04,3.5521925824e+00,-7.3745913655e-02
1.2589254118e+04,3.5477725745e+00,-5.9507873971e-02
1.5848931925e+04,3.5448792983e+00,-4.7879774329e-02
1.9952623150e+04,3.5429521315e+00,-3.8544855621e-02
2.5118864315e+04,3.5417232926e+00,-3.1090830578e-02
3.1622776602e+04,3.5408849238e+00,-2.5150046173e-02
3.9810717055e+04,3.5403440189e+00,-2.0541746499e-02
5.0118723363e+04,3.5400486347e+00,-1.6859975223e-02
6.3095734448e+04,3.5396683869e+00,-1.4186981234e-02
7.9432823472e+04,3.5398534702e+00,-1.2206315192e-02
1.0000000000e+05,3.5395310546e+00,-1.0603133941e-02
1.2589254118e+05,3.5398202654e+00,-1.0265027320e-02
1.5848931925e+05,3.5400299532e+00,-9.6592299036e-03
1.9952623150e+05,3.5399488537e+00,-1.0516464108e-02
2.5118864315e+05,3.5405946386e+00,-1.1288680459e-02
3.1622776602e+05,3.5406701766e+00,-1.2922387967e-02
3.9810717055e+05,3.5414776882e+00,-1.5784477458e-02
5.0118723363e+05,3.5422008574e+00,-1.9320189485e-02
6.3095734448e+05,3.5430146988e+00,-2.4549645197e-02
7.9432823472e+05,3.5437727724e+00,-3.1130367807e-02
1.0000000000e+06,3.5446938033e+00,-3.9931636237e-02
1.2589254118e+06,3.5456703237e+00,-5.1375215291e-02
1.5848931925e+06,3.5463794473e+00,-6.6066042077e-02
1.9952623150e+06,3.5467374556e+00,-8.4746168592e-02
2.5118864315e+06,3.5464676961e+00,-1.0847547331e-01
3.1622776602e+06,3.5452155596e+00,-1.3827723954e-01
3.9810717055e+06,3.5426039616e+00,-1.7568115755e-01
5.0118723363e+06,3.5377816885e+00,-2.2242866511e-01
6.3095734448e+06,3.5297005444e+00,-2.8081078268e-01
7.9432823472e+06,3.5165671242e+00,-3.5343491950e-01
1.0000000000e+07,3.4956446376e+00,-4.4327698505e-01
1.2589254118e+07,3.4628192377e+00,-5.5349488881e-01
1.5848931925e+07,3.4119621728e+00,-6.8686965577e-01
1.9952623150e+07,3.3344998423e+00,-8.4482775282e-01
2.5118864315e+07,3.2191560273e+00,-1.0256756362e+00
3.1622776602e+07,3.0528960024e+00,-1.2222154357e+00
3.9810717055e+07,2.8238140900e+00,-1.4191877203e+00
5.0118723363e+07,2.5266178697e+00,-1.5925991314e+00
6.3095734448e+07,2.1691073185e+00,-1.7134962484e+00
7.9432823472e+07,1.7755314689e+00,-1.7570859937e+00
1.0000000000e+08,1.3819275755e+00,-1.7134321909e+00
1.2589254118e+08,1.0244183540e+00,-1.5924347703e+00
1.5848931925e+08,7.2728669422e-01,-1.4188549336e+00
1.9952623150e+08,4.9837877006e-01,-1.2217621762e+00
2.5118864315e+08,3.3240200281e-01,-1.0251771656e+00
3.1622776602e+08,2.1736761260e-01,-8.4441939651e-01
3.9810717055e+08,1.4021005274e-01,-6.8671613517e-01
5.0118723363e+08,8.9586012613e-02,-5.5372394879e-01
6.3095734448e+08,5.6886017965e-02,-4.4400836135e-01
7.9432823472e+08,3.5959531798e-02,-3.5475848953e-01
1.0000000000e+09,2.2665667163e-02,-2.8280553047e-01
