# freq[/s],z_re[ohm],z_im[ohm]
1.0000000000e-05,5.4098496456e+00,-2.0389843806e-04
1.2589254118e-05,5.4098467026e+00,-2.5648711838e-04
1.5848931925e-05,5.4098420685e+00,-3.2249120686e-04
1.9952623150e-05,5.4098347983e+00,-4.0519311611e-04
2.5118864315e-05,5.4098234552e+00,-5.0855281430e-04
3.1622776602e-05,5.4098059027e+00,-6.3724573238e-04
3.9810717055e-05,5.4097790613e+00,-7.9663134654e-04
5.0118723363e-05,5.4097386699e+00,-9.9263322170e-04
6.3095734448e-05,5.4096791071e+00,-1.2315623467e-03
7.9432823472e-05,5.4095932497e+00,-1.5199839132e-03
1.0000000000e-04,5.4094721636e+00,-1.8646788624e-03
1.2589254118e-04,5.4093042991e+00,-2.2723872413e-03
1.5848931925e-04,5.4090743172e+00,-2.7484781078e-03
1.9952623150e-04,5.4087628474e+00,-3.2938173150e-03
2.5118864315e-04,5.4083493822e+00,-3.9007243964e-03
3.1622776602e-04,5.4078193763e+00,-4.5514178790e-03
3.9810717055e-04,5.4071727355e+00,-5.2232452984e-03
5.0118723363e-04,5.4064265639e+00,-5.9012417600e-03
6.3095734448e-04,5.4056061546e+00,-6.5906980911e-03
7.9432823472e-04,5.4047278299e+00,-7.3185871090e-03
1.0000000000e-03,5.4037866764e+00,-8.1207938783e-03
1.2589254118e-03,5.4027589535e+00,-9.0254120589e-03
1.5848931925e-03,5.4016153016e+00,-1.0045619863e-02
1.9952623150e-03,5.4003318172e+00,-1.1185386949e-02
2.5118864315e-03,5.3988907100e+00,-1.2448987947e-02
3.1622776602e-03,5.3972747100e+00,-1.3844348550e-02
3.9810717055e-03,5.3954641715e+00,-1.5380786356e-02
5.0118723363e-03,5.3934377394e+00,-1.7067956002e-02
6.3095734448e-03,5.3911715791e+00,-1.8916469309e-02
7.9432823472e-03,5.3886379493e+00,-2.0936108577e-02
1.0000000000e-02,5.3858069715e+00,-2.3133782297e-02
1.2589254118e-02,5.3826482326e+00,-2.5515154055e-02
1.5848931925e-02,5.3791282936e+00,-2.8085521713e-02
1.9952623150e-02,5.3752096190e+00,-3.0846119401e-02
2.5118864315e-02,5.3708544065e+00,-3.3792312072e-02
3.1622776602e-02,5.3660257477e+00,-3.6916473491e-02
3.9810717055e-02,5.3606842340e+00,-4.0206918219e-02
5.0118723363e-02,5.3547897751e+00,-4.3642277452e-02
6.3095734448e-02,5.3483079006e+00,-4.7192142329e-02
7.9432823472e-02,5.3412090846e+00,-5.0821478424e-02
1.0000000000e-01,5.3334657497e+00,-5.4486805779e-02
1.2589254118e-01,5.3250591431e+00,-5.8131283329e-02
1.5848931925e-01,5.3159864300e+00,-6.1690926203e-02
1.9952623150e-01,5.3062565677e+00,-6.5099943338e-02
2.5118864315e-01,5.2958895302e+00,-6.8285246397e-02
3.1622776602e-01,5.2849265215e+00,-7.1167524820e-02
3.9810717055e-01,5.2734312866e+00,-7.3674018949e-02
5.0118723363e-01,5.2614805714e+00,-7.5741497077e-02
6.3095734448e-01,5.2491653186e+00,-7.7311110710e-02
7.9432823472e-01,5.2365976369e+00,-7.8336267519e-02
1.0000000000e+00,5.2239009820e+00,-7.8795772469e-02
1.2589254118e+00,5.2111971876e+00,-7.8688017782e-02
1.5848931925e+00,5.1986104437e+00,-7.8026443373e-02
1.9952623150e+00,5.1862663376e+00,-7.6848964974e-02
2.5118864315e+00,5.1742752195e+00,-7.5218613898e-02
3.1622776602e+00,5.1627306090e+00,-7.3211597880e-02
3.9810717055e+00,5.1517134075e+00,-7.0914836049e-02
5.0118723363e+00,5.1412889072e+00,-6.8433313526e-02
6.3095734448e+00,5.1314977874e+00,-6.5883071958e-02
7.9432823472e+00,5.1223605080e+00,-6.3380620533e-02
1.0000000000e+01,5.1138884895e+00,-6.1049540728e-02
1.2589254118e+01,5.1060771564e+00,-5.9026530419e-02
1.5848931925e+01,5.0989017078e+00,-5.7458375503e-02
1.9952623150e+01,5.0923294461e+00,-5.6498851498e-02
2.5118864315e+01,5.0863203271e+00,-5.6325096359e-02
3.1622776602e+01,5.0808189727e+00,-5.7146481929e-02
3.9810717055e+01,5.0757508878e+00,-5.9203734770e-02
5.0118723363e+01,5.0710279934e+00,-6.2786598959e-02
6.3095734448e+01,5.0665278080e+00,-6.8248535214e-02
7.9432823472e+01,5.0620846737e+00,-7.6023292501e-02
1.0000000000e+02,5.0574458433e+00,-8.6641179597e-02
1.2589254118e+02,5.0522499809e+00,-1.0072710687e-01
1.5848931925e+02,5.0459569398e+00,-1.1903182055e-01
1.9952623150e+02,5.0377454519e+00,-1.4239883740e-01
2.5118864315e+02,5.0263915762e+00,-1.7170111776e-01
3.1622776602e+02,5.0101188524e+00,-2.0769612132e-01
3.9810717055e+02,4.9864372116e+00,-2.5073843293e-01
5.0118723363e+02,4.9521130992e+00,-3.0026981378e-01
6.3095734448e+02,4.9034468273e+00,-3.5411878381e-01
7.9432823472e+02,4.8371368686e+00,-4.0781238755e-01
1.0000000000e+03,4.7518762006e+00,-4.5442044358e-01
1.2589254118e+03,4.6502119968e+00,-4.8575090216e-01
1.5848931925e+03,4.5393387684e+00,-4.9504968696e-01
1.9952623150e+03,4.4295828142e+00,-4.8003523543e-01
2.5118864315e+03,4.3308857339e+00,-4.4404171312e-01
3.1622776602e+03,4.2495335437e+00,-3.9433080524e-01
3.9810717055e+03,4.1872156438e+00,-3.3894991019e-01
5.0118723363e+03,4.1421307127e+00,-2.8437026961e-01
6.3095734448e+03,4.1108241616e+00,-2.3455259539e-01
7.9432823472e+03,4.0896782379e+00,-1.9127735337e-01
1.0000000000e+04,4.0756475762e+00,-1.5487551874e-01
1.2589254118e+04,4.0664176632e+00,-1.2488981508e-01
1.5848931925e+04,4.0603632391e+00,-1.0053072609e-01
1.9952623150e+04,4.0563827225e+00,-8.0928858673e-02
2.5118864315e+04,4.0537526343e+00,-6.5282863984e-02
3.1622776602e+04,4.0519698793e+00,-5.2871337326e-02
3.9810717055e+04,4.0507241972e+00,-4.3089997779e-02
5.0118723363e+04,4.0498150654e+00,-3.5454904330e-02
6.3095734448e+04,4.0491251616e+00,-2.9589365137e-02
7.9432823472e+04,4.0486181227e+00,-2.5228873333e-02
1.0000000000e+05,4.0482659672e+00,-2.2192696522e-02
1.2589254118e+05,4.0480404854e+00,-2.0369341567e-02
1.5848931925e+05,4.0478958660e+00,-1.9663387452e-02
1.9952623150e+05,4.0477863587e+00,-2.0016491941e-02
2.5118864315e+05,4.0476838094e+00,-2.1407727326e-02
3.1622776602e+05,4.0475834351e+00,-2.3886683772e-02
3.9810717055e+05,4.0474799515e+00,-2.7587383540e-02
5.0118723363e+05,4.0473507215e+00,-3.2720271878e-02
6.3095734448e+05,4.0471552779e+00,-3.9550268696e-02
7.9432823472e+05,4.0468749377e+00,-4.8413825290e-02
1.0000000000e+06,4.0465111349e+00,-5.9778971357e-02
1.2589254118e+06,4.0460277653e+00,-7.4296477525e-02
1.5848931925e+06,4.0453096134e+00,-9.2789393836e-02
1.9952623150e+06,4.0441384082e+00,-1.1626355894e-01
2.5118864315e+06,4.0422230765e+00,-1.4591197582e-01
3.1622776602e+06,4.0391145593e+00,-1.8327557701e-01
3.9810717055e+06,4.0341596337e+00,-2.3015246508e-01
5.0118723363e+06,4.0264231694e+00,-2.8892261229e-01
6.3095734448e+06,4.0142267791e+00,-3.6242499282e-01
7.9432823472e+06,3.9950026619e+00,-4.5389337403e-01
1.0000000000e+07,3.9649608752e+00,-5.6686584809e-01
1.2589254118e+07,3.9182996228e+00,-7.0483782928e-01
1.5848931925e+07,3.8467614376e+00,-8.7044271881e-01
1.9952623150e+07,3.7389308376e+00,-1.0639440072e+00
2.5118864315e+07,3.5806095317e+00,-1.2807051171e+00
3.1622776602e+07,3.3567707765e+00,-1.5082792291e+00
3.9810717055e+07,3.0564398121e+00,-1.7240011720e+00
5.0118723363e+07,2.6800089496e+00,-1.8963629790e+00
6.3095734448e+07,2.2459479465e+00,-1.9926207200e+00
7.9432823472e+07,1.7905102702e+00,-1.9914026055e+00
1.0000000000e+08,1.3574490250e+00,-1.8929796765e+00
1.2589254118e+08,9.8269368698e-01,-1.7191279541e+00
1.5848931925e+08,6.8425591038e-01,-1.5027277209e+00
1.9952623150e+08,4.6218488604e-01,-1.2751418442e+00
2.5118864315e+08,3.0528666110e-01,-1.0587801040e+00
3.1622776602e+08,1.9851555838e-01,-8.6589405062e-01
3.9810717055e+08,1.2772278025e-01,-7.0092794407e-01
5.0118723363e+08,8.1597062669e-02,-5.6356732496e-01
6.3095734448e+08,5.1888106148e-02,-4.5113977518e-01
7.9432823472e+08,3.2894350317e-02,-3.6012012420e-01
1.0000000000e+09,2.0797363161e-02,-2.8694362214e-01
